T1CA0 41803:182.776   SEGGER J-Link V7.70c Log File
T1CA0 41803:182.887   DLL Compiled: Aug 18 2022 17:25:28
T1CA0 41803:182.917   Logging started @ 2022-12-11 15:21
T1CA0 41803:182.934 - 332411.965ms
T1CA0 41803:182.965 JLINK_SetWarnOutHandler(...)
T1CA0 41803:182.983 - 0.027ms
T1CA0 41803:183.015 JLINK_OpenEx(...)
T1CA0 41803:185.185   Firmware: J-Link OB-STM32F103 V1 compiled Feb  2 2030 16:45:54
T1CA0 41803:185.675   Firmware: J-Link OB-STM32F103 V1 compiled Feb  2 2030 16:45:54
T1CA0 41803:207.891   Hardware: V1.00
T1CA0 41803:207.936   S/N: 4294967295
T1CA0 41803:207.957   OEM: SEGGER
T1CA0 41803:207.977   Feature(s): RDI, FlashBP, FlashDL, JFlash, GDB
T1CA0 41803:210.922   TELNET listener socket opened on port 19021
T1CA0 41803:224.527   WEBSRV WEBSRV_Init(): Starting webserver thread(s)
T1CA0 41803:224.918   WEBSRV Webserver running on local port 19080
T1CA0 41803:290.267 - 107.293ms returns "O.K."
T1CA0 41803:290.853 JLINK_GetEmuCaps()
T1CA0 41803:290.892 - 0.050ms returns 0x88EA5A33
T1CA0 41803:290.933 JLINK_TIF_GetAvailable(...)
T1CA0 41803:291.254 - 0.368ms
T1CA0 41803:291.376 JLINK_SetErrorOutHandler(...)
T1CA0 41803:291.398 - 0.032ms
T1CA0 41803:291.441 JLINK_ExecCommand("ProjectFile = "D:\For study\Apollo3p_Software\keil\JLinkSettings.ini"", ...). 
T1CA0 41803:297.860 - 6.446ms returns 0x00
T1CA0 41803:305.195 JLINK_ExecCommand("Device = AMA3B2KK-KBR", ...). 
T1CA0 41803:315.254   Device "AMA3B2KK-KBR" selected.
T1CA0 41803:315.990 - 10.764ms returns 0x00
T1CA0 41803:316.033 JLINK_ExecCommand("DisableConnectionTimeout", ...). 
T1CA0 41803:316.061 - 0.015ms returns 0x01
T1CA0 41803:316.198 JLINK_GetHardwareVersion()
T1CA0 41803:316.233 - 0.047ms returns 10000
T1CA0 41803:316.270 JLINK_GetDLLVersion()
T1CA0 41803:316.291 - 0.032ms returns 77003
T1CA0 41803:316.323 JLINK_GetOEMString(...)
T1CA0 41803:316.354 JLINK_GetFirmwareString(...)
T1CA0 41803:316.375 - 0.032ms
T1CA0 41803:336.868 JLINK_GetDLLVersion()
T1CA0 41803:336.910 - 0.051ms returns 77003
T1CA0 41803:336.941 JLINK_GetCompileDateTime()
T1CA0 41803:336.957 - 0.023ms
T1CA0 41803:344.482 JLINK_GetFirmwareString(...)
T1CA0 41803:344.524 - 0.050ms
T1CA0 41803:350.356 JLINK_GetHardwareVersion()
T1CA0 41803:350.392 - 0.044ms returns 10000
T1CA0 41803:357.929 JLINK_GetSN()
T1CA0 41803:358.001 - 0.107ms returns -1
T1CA0 41803:358.059 JLINK_GetOEMString(...)
T1CA0 41803:372.136 JLINK_TIF_Select(JLINKARM_TIF_SWD)
T1CA0 41803:373.711 - 1.620ms returns 0x00
T1CA0 41803:373.788 JLINK_HasError()
T1CA0 41803:373.825 JLINK_SetSpeed(500)
T1CA0 41803:374.030 - 0.225ms
T1CA0 41803:374.078 JLINK_GetId()
T1CA0 41803:381.976   Found SW-DP with ID 0x2BA01477
T1CA0 41803:395.281   DPIDR: 0x2BA01477
T1CA0 41803:401.423   CoreSight SoC-400 or earlier
T1CA0 41803:408.576   Scanning AP map to find all available APs
T1CA0 41803:418.162   AP[1]: Stopped AP scan as end of AP map has been reached
T1CA0 41803:424.989   AP[0]: AHB-AP (IDR: 0x24770011)
T1CA0 41803:431.214   Iterating through AP map to find AHB-AP to use
T1CA0 41803:441.807   AP[0]: Core found
T1CA0 41803:448.488   AP[0]: AHB-AP ROM base: 0xE00FF000
T1CA0 41803:457.272   CPUID register: 0x410FC241. Implementer code: 0x41 (ARM)
T1CA0 41803:464.267   Found Cortex-M4 r0p1, Little endian.
T1CA0 41803:566.299   -- Max. mem block: 0x00002A00
T1CA0 41803:567.118   CPU_ReadMem(4 bytes @ 0xE000EDF0)
T1CA0 41803:568.972   CPU_ReadMem(4 bytes @ 0xE0002000)
T1CA0 41803:602.235   FPUnit: 6 code (BP) slots and 2 literal slots
T1CA0 41803:602.383   CPU_ReadMem(4 bytes @ 0xE000EDFC)
T1CA0 41803:603.872   CPU_ReadMem(4 bytes @ 0xE0001000)
T1CA0 41803:605.126   CPU_WriteMem(4 bytes @ 0xE0001000)
T1CA0 41803:606.368   CPU_ReadMem(4 bytes @ 0xE000ED88)
T1CA0 41803:607.984   CPU_WriteMem(4 bytes @ 0xE000ED88)
T1CA0 41803:609.330   CPU_ReadMem(4 bytes @ 0xE000ED88)
T1CA0 41803:610.617   CPU_WriteMem(4 bytes @ 0xE000ED88)
T1CA0 41803:635.288   CoreSight components:
T1CA0 41803:653.448   ROMTbl[0] @ E00FF000
T1CA0 41803:653.571   CPU_ReadMem(64 bytes @ 0xE00FF000)
T1CA0 41803:656.766   CPU_ReadMem(32 bytes @ 0xE000EFE0)
T1CA0 41803:681.083   [0][0]: E000E000 CID B105E00D PID 000BB00C SCS-M7
T1CA0 41803:681.266   CPU_ReadMem(32 bytes @ 0xE0001FE0)
T1CA0 41803:706.796   [0][1]: E0001000 CID B105E00D PID 003BB002 DWT
T1CA0 41803:706.978   CPU_ReadMem(32 bytes @ 0xE0002FE0)
T1CA0 41803:730.006   [0][2]: E0002000 CID B105E00D PID 002BB003 FPB
T1CA0 41803:730.139   CPU_ReadMem(32 bytes @ 0xE0000FE0)
T1CA0 41803:751.829   [0][3]: E0000000 CID B105E00D PID 003BB001 ITM
T1CA0 41803:751.958   CPU_ReadMem(32 bytes @ 0xE0040FE0)
T1CA0 41803:775.391   [0][4]: E0040000 CID B105900D PID 000BB9A1 TPIU
T1CA0 41803:776.574 - 402.544ms returns 0x2BA01477
T1CA0 41803:776.714 JLINK_GetDLLVersion()
T1CA0 41803:776.804 - 0.118ms returns 77003
T1CA0 41803:777.219 JLINK_CORE_GetFound()
T1CA0 41803:777.320 - 0.130ms returns 0xE0000FF
T1CA0 41803:777.422 JLINK_GetDebugInfo(0x100 = JLINKARM_ROM_TABLE_ADDR_INDEX)
T1CA0 41803:777.497   Value=0xE00FF000
T1CA0 41803:777.587 - 0.199ms returns 0
T1CA0 41803:798.005 JLINK_GetDebugInfo(0x100 = JLINKARM_ROM_TABLE_ADDR_INDEX)
T1CA0 41803:798.094   Value=0xE00FF000
T1CA0 41803:798.151 - 0.166ms returns 0
T1CA0 41803:798.208 JLINK_GetDebugInfo(0x101 = JLINKARM_DEBUG_INFO_ETM_ADDR_INDEX)
T1CA0 41803:798.249   Value=0x00000000
T1CA0 41803:798.304 - 0.114ms returns 0
T1CA0 41803:798.372 JLINK_ReadMemEx(0xE0041FF0, 0x10 Bytes, Flags = 0x02000004)
T1CA0 41803:798.458   CPU_ReadMem(16 bytes @ 0xE0041FF0)
T1CA0 41803:800.258   Data:  00 00 00 00 00 00 00 00 00 00 00 00 00 00 00 00
T1CA0 41803:800.342 - 1.991ms returns 16 (0x10)
T1CA0 41803:800.416 JLINK_GetDebugInfo(0x102 = JLINKARM_DEBUG_INFO_MTB_ADDR_INDEX)
T1CA0 41803:800.460   Value=0x00000000
T1CA0 41803:800.517 - 0.120ms returns 0
T1CA0 41803:800.572 JLINK_GetDebugInfo(0x103 = JLINKARM_DEBUG_INFO_TPIU_ADDR_INDEX)
T1CA0 41803:800.613   Value=0xE0040000
T1CA0 41803:800.669 - 0.117ms returns 0
T1CA0 41803:800.723 JLINK_GetDebugInfo(0x104 = JLINKARM_DEBUG_INFO_ITM_ADDR_INDEX)
T1CA0 41803:800.764   Value=0xE0000000
T1CA0 41803:800.819 - 0.116ms returns 0
T1CA0 41803:800.873 JLINK_GetDebugInfo(0x105 = JLINKARM_DEBUG_INFO_DWT_ADDR_INDEX)
T1CA0 41803:800.913   Value=0xE0001000
T1CA0 41803:800.990 - 0.137ms returns 0
T1CA0 41803:801.046 JLINK_GetDebugInfo(0x106 = JLINKARM_DEBUG_INFO_FPB_ADDR_INDEX)
T1CA0 41803:801.087   Value=0xE0002000
T1CA0 41803:801.141 - 0.114ms returns 0
T1CA0 41803:801.194 JLINK_GetDebugInfo(0x107 = JLINKARM_DEBUG_INFO_NVIC_ADDR_INDEX)
T1CA0 41803:801.235   Value=0xE000E000
T1CA0 41803:801.290 - 0.115ms returns 0
T1CA0 41803:801.344 JLINK_GetDebugInfo(0x10C = JLINKARM_DEBUG_INFO_DBG_ADDR_INDEX)
T1CA0 41803:801.384   Value=0xE000EDF0
T1CA0 41803:801.439 - 0.115ms returns 0
T1CA0 41803:801.493 JLINK_GetDebugInfo(0x01 = Unknown)
T1CA0 41803:801.533   Value=0x00000001
T1CA0 41803:801.588 - 0.115ms returns 0
T1CA0 41803:801.662 JLINK_ReadMemU32(0xE000ED00, 0x1 Items)
T1CA0 41803:801.730   CPU_ReadMem(4 bytes @ 0xE000ED00)
T1CA0 41803:803.239   Data:  41 C2 0F 41
T1CA0 41803:803.328   Debug reg: CPUID
T1CA0 41803:803.387 - 1.746ms returns 1 (0x1)
T1CA0 41803:803.475 JLINK_GetDebugInfo(0x10F = JLINKARM_DEBUG_INFO_HAS_CORTEX_M_SECURITY_EXT_INDEX)
T1CA0 41803:803.520   Value=0x00000000
T1CA0 41803:803.599 - 0.151ms returns 0
T1CA0 41803:803.687 JLINK_HasError()
T1CA0 41803:803.768 JLINK_SetResetType(JLINKARM_CM3_RESET_TYPE_NORMAL)
T1CA0 41803:803.808 - 0.060ms returns JLINKARM_CM3_RESET_TYPE_NORMAL
T1CA0 41803:803.873 JLINK_Reset()
T1CA0 41803:824.066   ResetTarget() start
T1CA0 41803:824.189    J-Link Script File: Executing ResetTarget()
T1CA0 41803:852.892   JDEC PID 0x000000CF
T1CA0 41803:875.798   Ambiq Apollo3 ResetTarget
T1CA0 41803:898.885   Bootldr = 0x04000000
T1CA0 41803:919.409   Secure Part.
T1CA0 41803:938.535   Secure Chip. Bootloader needs to run which will then halt when finish.
T1CA0 41803:963.827   CPU halted after reset. TryCount = 0x00000000
T1CA0 41804:086.791   ResetTarget() end
T1CA0 41804:100.270   CPU_WriteMem(4 bytes @ 0xE0002000)
T1CA0 41804:101.954   CPU_ReadMem(4 bytes @ 0xE000EDFC)
T1CA0 41804:103.480   CPU_WriteMem(4 bytes @ 0xE000EDFC)
T1CA0 41804:105.045   CPU_ReadMem(4 bytes @ 0xE0001000)
T1CA0 41804:106.594 - 302.820ms
T1CA0 41804:107.253 JLINK_Halt()
T1CA0 41804:107.371 - 0.152ms returns 0x00
T1CA0 41804:107.480 JLINK_ReadMemU32(0xE000EDF0, 0x1 Items)
T1CA0 41804:107.624   CPU_ReadMem(4 bytes @ 0xE000EDF0)
T1CA0 41804:109.079   Data:  03 00 03 00
T1CA0 41804:109.213   Debug reg: DHCSR
T1CA0 41804:109.282 - 1.826ms returns 1 (0x1)
T1CA0 41804:109.403 JLINK_WriteU32_64(0xE000EDF0, 0xA05F0003)
T1CA0 41804:109.485   Debug reg: DHCSR
T1CA0 41804:113.628   CPU_WriteMem(4 bytes @ 0xE000EDF0)
T1CA0 41804:115.381 - 6.067ms returns 0 (0x00000000)
T1CA0 41804:115.539 JLINK_WriteU32_64(0xE000EDFC, 0x01000000)
T1CA0 41804:115.595   Debug reg: DEMCR
T1CA0 41804:115.703   CPU_WriteMem(4 bytes @ 0xE000EDFC)
T1CA0 41804:117.376 - 1.926ms returns 0 (0x00000000)
T1CA0 41804:209.542 JLINK_GetHWStatus(...)
T1CA0 41804:210.304 - 0.858ms returns 0
T1CA0 41804:275.370 JLINK_GetNumBPUnits(Type = 0xFFFFFF00)
T1CA0 41804:275.497 - 0.161ms returns 0x06
T1CA0 41804:275.611 JLINK_GetNumBPUnits(Type = 0xF0)
T1CA0 41804:275.678 - 0.098ms returns 0x2000
T1CA0 41804:275.769 JLINK_GetNumWPUnits()
T1CA0 41804:275.831 - 0.095ms returns 4
T1CA0 41804:346.116 JLINK_GetSpeed()
T1CA0 41804:346.260 - 0.171ms returns 500
T1CA0 41804:400.328 JLINK_ReadMemU32(0xE000E004, 0x1 Items)
T1CA0 41804:400.549   CPU_ReadMem(4 bytes @ 0xE000E004)
T1CA0 41804:402.427   Data:  01 00 00 00
T1CA0 41804:402.556 - 2.255ms returns 1 (0x1)
T1CA0 41804:402.663 JLINK_ReadMemU32(0xE000E004, 0x1 Items)
T1CA0 41804:402.753   CPU_ReadMem(4 bytes @ 0xE000E004)
T1CA0 41804:404.379   Data:  01 00 00 00
T1CA0 41804:404.507 - 1.869ms returns 1 (0x1)
T1CA0 41804:404.616 JLINK_WriteMemEx(0xE0001000, 0x0000001C Bytes, Flags = 0x02000004)
T1CA0 41804:404.673   Data:  01 00 00 00 00 00 00 00 00 00 00 00 00 00 00 00 ...
T1CA0 41804:404.802   CPU_WriteMem(28 bytes @ 0xE0001000)
T1CA0 41804:406.819 - 2.316ms returns 0x1C
T1CA0 41804:407.018 JLINK_Halt()
T1CA0 41804:407.085 - 0.098ms returns 0x00
T1CA0 41804:407.206 JLINK_IsHalted()
T1CA0 41804:407.378 - 0.291ms returns TRUE
T1CA0 41804:430.920 JLINK_WriteMem(0x10000000, 0x15C Bytes, ...)
T1CA0 41804:431.018   Data:  00 BE 0A E0 0D 78 2D 06 68 40 08 24 40 00 00 D3 ...
T1CA0 41804:435.254   CPU_WriteMem(348 bytes @ 0x10000000)
T1CA0 41804:444.208 - 13.428ms returns 0x15C
T1CA0 41804:445.080 JLINK_HasError()
T1CA0 41804:445.464 JLINK_WriteReg(R0, 0x0000C000)
T1CA0 41804:445.696 - 0.273ms returns 0
T1CA0 41804:445.803 JLINK_WriteReg(R1, 0x02DC6C00)
T1CA0 41804:445.886 - 0.118ms returns 0
T1CA0 41804:445.999 JLINK_WriteReg(R2, 0x00000001)
T1CA0 41804:446.073 - 0.115ms returns 0
T1CA0 41804:446.174 JLINK_WriteReg(R3, 0x00000000)
T1CA0 41804:446.247 - 0.113ms returns 0
T1CA0 41804:446.412 JLINK_WriteReg(R4, 0x00000000)
T1CA0 41804:446.539 - 0.169ms returns 0
T1CA0 41804:446.657 JLINK_WriteReg(R5, 0x00000000)
T1CA0 41804:446.864 - 0.279ms returns 0
T1CA0 41804:447.027 JLINK_WriteReg(R6, 0x00000000)
T1CA0 41804:447.125 - 0.143ms returns 0
T1CA0 41804:447.245 JLINK_WriteReg(R7, 0x00000000)
T1CA0 41804:447.314 - 0.107ms returns 0
T1CA0 41804:447.412 JLINK_WriteReg(R8, 0x00000000)
T1CA0 41804:447.493 - 0.134ms returns 0
T1CA0 41804:447.604 JLINK_WriteReg(R9, 0x10000138)
T1CA0 41804:447.685 - 0.113ms returns 0
T1CA0 41804:447.780 JLINK_WriteReg(R10, 0x00000000)
T1CA0 41804:447.874 - 0.126ms returns 0
T1CA0 41804:447.967 JLINK_WriteReg(R11, 0x00000000)
T1CA0 41804:448.052 - 0.120ms returns 0
T1CA0 41804:448.153 JLINK_WriteReg(R12, 0x00000000)
T1CA0 41804:448.228 - 0.108ms returns 0
T1CA0 41804:448.321 JLINK_WriteReg(R13 (SP), 0x10004000)
T1CA0 41804:448.396 - 0.119ms returns 0
T1CA0 41804:448.493 JLINK_WriteReg(R14, 0x10000001)
T1CA0 41804:448.574 - 0.133ms returns 0
T1CA0 41804:448.716 JLINK_WriteReg(R15 (PC), 0x10000038)
T1CA0 41804:448.802 - 0.125ms returns 0
T1CA0 41804:448.920 JLINK_WriteReg(XPSR, 0x01000000)
T1CA0 41804:449.043 - 0.167ms returns 0
T1CA0 41804:449.136 JLINK_WriteReg(MSP, 0x10004000)
T1CA0 41804:449.231 - 0.151ms returns 0
T1CA0 41804:449.341 JLINK_WriteReg(PSP, 0x10004000)
T1CA0 41804:449.410 - 0.124ms returns 0
T1CA0 41804:449.548 JLINK_WriteReg(CFBP, 0x00000000)
T1CA0 41804:449.614 - 0.089ms returns 0
T1CA0 41804:449.699 JLINK_SetBPEx(Addr = 0x10000000, Type = 0xFFFFFFF2)
T1CA0 41804:449.759 - 0.084ms returns 0x00000001
T1CA0 41804:449.831 JLINK_Go()
T1CA0 41804:449.910   CPU_WriteMem(4 bytes @ 0xE0002000)
T1CA0 41804:451.606   CPU_ReadMem(4 bytes @ 0xE0001000)
T1CA0 41804:452.932   CPU_WriteMem(4 bytes @ 0xE0002008)
T1CA0 41804:453.203   CPU_WriteMem(4 bytes @ 0xE000200C)
T1CA0 41804:453.307   CPU_WriteMem(4 bytes @ 0xE0002010)
T1CA0 41804:453.410   CPU_WriteMem(4 bytes @ 0xE0002014)
T1CA0 41804:453.505   CPU_WriteMem(4 bytes @ 0xE0002018)
T1CA0 41804:453.596   CPU_WriteMem(4 bytes @ 0xE000201C)
T1CA0 41804:458.498   CPU_WriteMem(4 bytes @ 0xE0001004)
T1CA0 41804:470.628 - 20.880ms
T1CA0 41804:470.793 JLINK_IsHalted()
T1CA0 41804:482.673 - 11.947ms returns TRUE
T1CA0 41804:482.838 JLINK_ReadReg(R15 (PC))
T1CA0 41804:482.921 - 0.118ms returns 0x10000000
T1CA0 41804:483.036 JLINK_ClrBPEx(BPHandle = 0x00000001)
T1CA0 41804:483.092 - 0.080ms returns 0x00
T1CA0 41804:483.390 JLINK_ReadReg(R0)
T1CA0 41804:483.484 - 0.121ms returns 0x00000000
T1CA0 41804:485.385 JLINK_HasError()
T1CA0 41804:485.478 JLINK_WriteReg(R0, 0x0000C000)
T1CA0 41804:485.536 - 0.082ms returns 0
T1CA0 41804:485.603 JLINK_WriteReg(R1, 0x00002000)
T1CA0 41804:485.651 - 0.071ms returns 0
T1CA0 41804:485.714 JLINK_WriteReg(R2, 0x000000FF)
T1CA0 41804:485.762 - 0.070ms returns 0
T1CA0 41804:485.825 JLINK_WriteReg(R3, 0x00000000)
T1CA0 41804:485.960 - 0.181ms returns 0
T1CA0 41804:486.120 JLINK_WriteReg(R4, 0x00000000)
T1CA0 41804:486.190 - 0.094ms returns 0
T1CA0 41804:486.255 JLINK_WriteReg(R5, 0x00000000)
T1CA0 41804:486.303 - 0.070ms returns 0
T1CA0 41804:486.365 JLINK_WriteReg(R6, 0x00000000)
T1CA0 41804:486.413 - 0.070ms returns 0
T1CA0 41804:486.475 JLINK_WriteReg(R7, 0x00000000)
T1CA0 41804:486.523 - 0.070ms returns 0
T1CA0 41804:486.585 JLINK_WriteReg(R8, 0x00000000)
T1CA0 41804:486.632 - 0.069ms returns 0
T1CA0 41804:486.695 JLINK_WriteReg(R9, 0x10000138)
T1CA0 41804:486.742 - 0.069ms returns 0
T1CA0 41804:486.804 JLINK_WriteReg(R10, 0x00000000)
T1CA0 41804:486.861 - 0.079ms returns 0
T1CA0 41804:486.924 JLINK_WriteReg(R11, 0x00000000)
T1CA0 41804:486.971 - 0.070ms returns 0
T1CA0 41804:487.034 JLINK_WriteReg(R12, 0x00000000)
T1CA0 41804:487.081 - 0.069ms returns 0
T1CA0 41804:487.144 JLINK_WriteReg(R13 (SP), 0x10004000)
T1CA0 41804:487.193 - 0.072ms returns 0
T1CA0 41804:487.257 JLINK_WriteReg(R14, 0x10000001)
T1CA0 41804:487.304 - 0.070ms returns 0
T1CA0 41804:487.367 JLINK_WriteReg(R15 (PC), 0x10000020)
T1CA0 41804:487.414 - 0.070ms returns 0
T1CA0 41804:487.477 JLINK_WriteReg(XPSR, 0x01000000)
T1CA0 41804:487.525 - 0.070ms returns 0
T1CA0 41804:487.587 JLINK_WriteReg(MSP, 0x10004000)
T1CA0 41804:487.634 - 0.069ms returns 0
T1CA0 41804:487.697 JLINK_WriteReg(PSP, 0x10004000)
T1CA0 41804:487.744 - 0.069ms returns 0
T1CA0 41804:487.807 JLINK_WriteReg(CFBP, 0x00000000)
T1CA0 41804:487.890 - 0.152ms returns 0
T1CA0 41804:488.026 JLINK_SetBPEx(Addr = 0x10000000, Type = 0xFFFFFFF2)
T1CA0 41804:488.086 - 0.084ms returns 0x00000002
T1CA0 41804:488.152 JLINK_Go()
T1CA0 41804:488.227   CPU_WriteMem(4 bytes @ 0xE0002000)
T1CA0 41804:490.550   CPU_ReadMem(4 bytes @ 0xE0001000)
T1CA0 41804:503.330 - 15.251ms
T1CA0 41804:503.474 JLINK_IsHalted()
T1CA0 41804:515.684 - 12.280ms returns TRUE
T1CA0 41804:515.875 JLINK_ReadReg(R15 (PC))
T1CA0 41804:516.008 - 0.169ms returns 0x10000000
T1CA0 41804:516.137 JLINK_ClrBPEx(BPHandle = 0x00000002)
T1CA0 41804:516.225 - 0.113ms returns 0x00
T1CA0 41804:516.330 JLINK_ReadReg(R0)
T1CA0 41804:516.421 - 0.115ms returns 0x00000001
T1CA0 41804:516.529 JLINK_HasError()
T1CA0 41804:516.667 JLINK_WriteReg(R0, 0x0000C000)
T1CA0 41804:516.962 - 0.332ms returns 0
T1CA0 41804:517.080 JLINK_WriteReg(R1, 0x00002000)
T1CA0 41804:517.174 - 0.119ms returns 0
T1CA0 41804:517.265 JLINK_WriteReg(R2, 0x000000FF)
T1CA0 41804:517.390 - 0.149ms returns 0
T1CA0 41804:517.490 JLINK_WriteReg(R3, 0x00000000)
T1CA0 41804:517.579 - 0.113ms returns 0
T1CA0 41804:517.681 JLINK_WriteReg(R4, 0x00000000)
T1CA0 41804:517.770 - 0.126ms returns 0
T1CA0 41804:517.888 JLINK_WriteReg(R5, 0x00000000)
T1CA0 41804:517.977 - 0.113ms returns 0
T1CA0 41804:518.085 JLINK_WriteReg(R6, 0x00000000)
T1CA0 41804:518.155 - 0.102ms returns 0
T1CA0 41804:518.260 JLINK_WriteReg(R7, 0x00000000)
T1CA0 41804:518.329 - 0.099ms returns 0
T1CA0 41804:518.413 JLINK_WriteReg(R8, 0x00000000)
T1CA0 41804:518.460 - 0.070ms returns 0
T1CA0 41804:518.536 JLINK_WriteReg(R9, 0x10000138)
T1CA0 41804:518.583 - 0.070ms returns 0
T1CA0 41804:518.658 JLINK_WriteReg(R10, 0x00000000)
T1CA0 41804:518.705 - 0.070ms returns 0
T1CA0 41804:518.792 JLINK_WriteReg(R11, 0x00000000)
T1CA0 41804:519.044 - 0.286ms returns 0
T1CA0 41804:519.157 JLINK_WriteReg(R12, 0x00000000)
T1CA0 41804:519.250 - 0.118ms returns 0
T1CA0 41804:519.352 JLINK_WriteReg(R13 (SP), 0x10004000)
T1CA0 41804:519.445 - 0.117ms returns 0
T1CA0 41804:519.546 JLINK_WriteReg(R14, 0x10000001)
T1CA0 41804:519.636 - 0.114ms returns 0
T1CA0 41804:519.738 JLINK_WriteReg(R15 (PC), 0x10000084)
T1CA0 41804:519.877 - 0.179ms returns 0
T1CA0 41804:519.981 JLINK_WriteReg(XPSR, 0x01000000)
T1CA0 41804:520.108 - 0.159ms returns 0
T1CA0 41804:520.213 JLINK_WriteReg(MSP, 0x10004000)
T1CA0 41804:520.286 - 0.102ms returns 0
T1CA0 41804:520.389 JLINK_WriteReg(PSP, 0x10004000)
T1CA0 41804:520.479 - 0.114ms returns 0
T1CA0 41804:520.566 JLINK_WriteReg(CFBP, 0x00000000)
T1CA0 41804:520.635 - 0.099ms returns 0
T1CA0 41804:520.721 JLINK_SetBPEx(Addr = 0x10000000, Type = 0xFFFFFFF2)
T1CA0 41804:520.959 - 0.289ms returns 0x00000003
T1CA0 41804:521.118 JLINK_Go()
T1CA0 41804:521.254   CPU_WriteMem(4 bytes @ 0xE0002000)
T1CA0 41804:523.941   CPU_ReadMem(4 bytes @ 0xE0001000)
T1CA0 41804:536.056 - 15.001ms
T1CA0 41804:536.213 JLINK_IsHalted()
T1CA0 41804:537.494 - 1.347ms returns FALSE
T1CA0 41804:537.683 JLINK_HasError()
T1CA0 41804:660.480 JLINK_IsHalted()
T1CA0 41804:671.971 - 11.524ms returns TRUE
T1CA0 41804:672.035 JLINK_ReadReg(R15 (PC))
T1CA0 41804:672.057 - 0.031ms returns 0x10000000
T1CA0 41804:672.087 JLINK_ClrBPEx(BPHandle = 0x00000003)
T1CA0 41804:672.120 - 0.042ms returns 0x00
T1CA0 41804:672.149 JLINK_ReadReg(R0)
T1CA0 41804:672.177 - 0.036ms returns 0x00000000
T1CA0 41804:673.832 JLINK_HasError()
T1CA0 41804:673.881 JLINK_WriteReg(R0, 0x0000E000)
T1CA0 41804:673.903 - 0.030ms returns 0
T1CA0 41804:673.926 JLINK_WriteReg(R1, 0x00002000)
T1CA0 41804:673.942 - 0.024ms returns 0
T1CA0 41804:673.963 JLINK_WriteReg(R2, 0x000000FF)
T1CA0 41804:673.979 - 0.023ms returns 0
T1CA0 41804:674.001 JLINK_WriteReg(R3, 0x00000000)
T1CA0 41804:674.016 - 0.023ms returns 0
T1CA0 41804:674.038 JLINK_WriteReg(R4, 0x00000000)
T1CA0 41804:674.053 - 0.023ms returns 0
T1CA0 41804:674.075 JLINK_WriteReg(R5, 0x00000000)
T1CA0 41804:674.091 - 0.023ms returns 0
T1CA0 41804:674.114 JLINK_WriteReg(R6, 0x00000000)
T1CA0 41804:674.130 - 0.023ms returns 0
T1CA0 41804:674.152 JLINK_WriteReg(R7, 0x00000000)
T1CA0 41804:674.168 - 0.023ms returns 0
T1CA0 41804:674.189 JLINK_WriteReg(R8, 0x00000000)
T1CA0 41804:674.205 - 0.023ms returns 0
T1CA0 41804:674.227 JLINK_WriteReg(R9, 0x10000138)
T1CA0 41804:674.243 - 0.023ms returns 0
T1CA0 41804:674.264 JLINK_WriteReg(R10, 0x00000000)
T1CA0 41804:674.280 - 0.023ms returns 0
T1CA0 41804:674.301 JLINK_WriteReg(R11, 0x00000000)
T1CA0 41804:674.317 - 0.024ms returns 0
T1CA0 41804:674.339 JLINK_WriteReg(R12, 0x00000000)
T1CA0 41804:674.365 - 0.033ms returns 0
T1CA0 41804:674.386 JLINK_WriteReg(R13 (SP), 0x10004000)
T1CA0 41804:674.406 - 0.027ms returns 0
T1CA0 41804:674.427 JLINK_WriteReg(R14, 0x10000001)
T1CA0 41804:674.444 - 0.024ms returns 0
T1CA0 41804:674.465 JLINK_WriteReg(R15 (PC), 0x10000020)
T1CA0 41804:674.492 - 0.034ms returns 0
T1CA0 41804:674.513 JLINK_WriteReg(XPSR, 0x01000000)
T1CA0 41804:674.529 - 0.023ms returns 0
T1CA0 41804:674.551 JLINK_WriteReg(MSP, 0x10004000)
T1CA0 41804:674.567 - 0.023ms returns 0
T1CA0 41804:674.588 JLINK_WriteReg(PSP, 0x10004000)
T1CA0 41804:674.605 - 0.024ms returns 0
T1CA0 41804:674.662 JLINK_WriteReg(CFBP, 0x00000000)
T1CA0 41804:674.725 - 0.075ms returns 0
T1CA0 41804:674.762 JLINK_SetBPEx(Addr = 0x10000000, Type = 0xFFFFFFF2)
T1CA0 41804:674.807 - 0.056ms returns 0x00000004
T1CA0 41804:674.846 JLINK_Go()
T1CA0 41804:674.892   CPU_WriteMem(4 bytes @ 0xE0002000)
T1CA0 41804:676.176   CPU_ReadMem(4 bytes @ 0xE0001000)
T1CA0 41804:687.827 - 13.014ms
T1CA0 41804:687.886 JLINK_IsHalted()
T1CA0 41804:699.447 - 11.599ms returns TRUE
T1CA0 41804:699.522 JLINK_ReadReg(R15 (PC))
T1CA0 41804:699.552 - 0.041ms returns 0x10000000
T1CA0 41804:699.603 JLINK_ClrBPEx(BPHandle = 0x00000004)
T1CA0 41804:699.630 - 0.038ms returns 0x00
T1CA0 41804:699.666 JLINK_ReadReg(R0)
T1CA0 41804:699.690 - 0.035ms returns 0x00000001
T1CA0 41804:699.738 JLINK_HasError()
T1CA0 41804:699.775 JLINK_WriteReg(R0, 0x0000E000)
T1CA0 41804:699.803 - 0.040ms returns 0
T1CA0 41804:699.839 JLINK_WriteReg(R1, 0x00002000)
T1CA0 41804:699.862 - 0.032ms returns 0
T1CA0 41804:699.895 JLINK_WriteReg(R2, 0x000000FF)
T1CA0 41804:699.917 - 0.032ms returns 0
T1CA0 41804:699.948 JLINK_WriteReg(R3, 0x00000000)
T1CA0 41804:699.970 - 0.031ms returns 0
T1CA0 41804:700.002 JLINK_WriteReg(R4, 0x00000000)
T1CA0 41804:700.030 - 0.038ms returns 0
T1CA0 41804:700.064 JLINK_WriteReg(R5, 0x00000000)
T1CA0 41804:700.086 - 0.031ms returns 0
T1CA0 41804:700.118 JLINK_WriteReg(R6, 0x00000000)
T1CA0 41804:700.139 - 0.031ms returns 0
T1CA0 41804:700.169 JLINK_WriteReg(R7, 0x00000000)
T1CA0 41804:700.190 - 0.031ms returns 0
T1CA0 41804:700.222 JLINK_WriteReg(R8, 0x00000000)
T1CA0 41804:700.243 - 0.031ms returns 0
T1CA0 41804:700.298 JLINK_WriteReg(R9, 0x10000138)
T1CA0 41804:700.326 - 0.038ms returns 0
T1CA0 41804:700.359 JLINK_WriteReg(R10, 0x00000000)
T1CA0 41804:700.380 - 0.032ms returns 0
T1CA0 41804:700.413 JLINK_WriteReg(R11, 0x00000000)
T1CA0 41804:700.435 - 0.031ms returns 0
T1CA0 41804:700.466 JLINK_WriteReg(R12, 0x00000000)
T1CA0 41804:700.488 - 0.032ms returns 0
T1CA0 41804:700.519 JLINK_WriteReg(R13 (SP), 0x10004000)
T1CA0 41804:700.544 - 0.034ms returns 0
T1CA0 41804:700.578 JLINK_WriteReg(R14, 0x10000001)
T1CA0 41804:700.601 - 0.034ms returns 0
T1CA0 41804:700.634 JLINK_WriteReg(R15 (PC), 0x10000084)
T1CA0 41804:700.697 - 0.074ms returns 0
T1CA0 41804:700.739 JLINK_WriteReg(XPSR, 0x01000000)
T1CA0 41804:700.769 - 0.038ms returns 0
T1CA0 41804:700.804 JLINK_WriteReg(MSP, 0x10004000)
T1CA0 41804:700.834 - 0.038ms returns 0
T1CA0 41804:700.868 JLINK_WriteReg(PSP, 0x10004000)
T1CA0 41804:700.898 - 0.038ms returns 0
T1CA0 41804:700.933 JLINK_WriteReg(CFBP, 0x00000000)
T1CA0 41804:700.963 - 0.038ms returns 0
T1CA0 41804:700.998 JLINK_SetBPEx(Addr = 0x10000000, Type = 0xFFFFFFF2)
T1CA0 41804:701.031 - 0.041ms returns 0x00000005
T1CA0 41804:701.065 JLINK_Go()
T1CA0 41804:701.106   CPU_WriteMem(4 bytes @ 0xE0002000)
T1CA0 41804:702.067   CPU_ReadMem(4 bytes @ 0xE0001000)
T1CA0 41804:714.198 - 13.197ms
T1CA0 41804:714.314 JLINK_IsHalted()
T1CA0 41804:715.579 - 1.323ms returns FALSE
T1CA0 41804:715.704 JLINK_HasError()
T1CA0 41804:721.501 JLINK_IsHalted()
T1CA0 41804:723.156 - 1.763ms returns FALSE
T1CA0 41804:723.361 JLINK_HasError()
T1CA0 41804:725.338 JLINK_IsHalted()
T1CA0 41804:726.970 - 1.685ms returns FALSE
T1CA0 41804:727.092 JLINK_HasError()
T1CA0 41804:729.589 JLINK_IsHalted()
T1CA0 41804:742.085 - 12.565ms returns TRUE
T1CA0 41804:742.568 JLINK_ReadReg(R15 (PC))
T1CA0 41804:742.659 - 0.115ms returns 0x10000000
T1CA0 41804:742.731 JLINK_ClrBPEx(BPHandle = 0x00000005)
T1CA0 41804:742.782 - 0.075ms returns 0x00
T1CA0 41804:742.850 JLINK_ReadReg(R0)
T1CA0 41804:742.897 - 0.070ms returns 0x00000000
T1CA0 41804:747.084 JLINK_HasError()
T1CA0 41804:747.236 JLINK_WriteReg(R0, 0x00010000)
T1CA0 41804:747.347 - 0.173ms returns 0
T1CA0 41804:747.477 JLINK_WriteReg(R1, 0x00002000)
T1CA0 41804:747.545 - 0.098ms returns 0
T1CA0 41804:747.628 JLINK_WriteReg(R2, 0x000000FF)
T1CA0 41804:747.702 - 0.114ms returns 0
T1CA0 41804:747.800 JLINK_WriteReg(R3, 0x00000000)
T1CA0 41804:747.872 - 0.102ms returns 0
T1CA0 41804:747.960 JLINK_WriteReg(R4, 0x00000000)
T1CA0 41804:748.032 - 0.108ms returns 0
T1CA0 41804:748.133 JLINK_WriteReg(R5, 0x00000000)
T1CA0 41804:748.221 - 0.145ms returns 0
T1CA0 41804:748.330 JLINK_WriteReg(R6, 0x00000000)
T1CA0 41804:748.384 - 0.077ms returns 0
T1CA0 41804:748.448 JLINK_WriteReg(R7, 0x00000000)
T1CA0 41804:748.495 - 0.070ms returns 0
T1CA0 41804:748.558 JLINK_WriteReg(R8, 0x00000000)
T1CA0 41804:748.605 - 0.070ms returns 0
T1CA0 41804:748.668 JLINK_WriteReg(R9, 0x10000138)
T1CA0 41804:748.715 - 0.069ms returns 0
T1CA0 41804:748.777 JLINK_WriteReg(R10, 0x00000000)
T1CA0 41804:748.824 - 0.070ms returns 0
T1CA0 41804:748.887 JLINK_WriteReg(R11, 0x00000000)
T1CA0 41804:748.934 - 0.069ms returns 0
T1CA0 41804:748.997 JLINK_WriteReg(R12, 0x00000000)
T1CA0 41804:749.044 - 0.070ms returns 0
T1CA0 41804:749.107 JLINK_WriteReg(R13 (SP), 0x10004000)
T1CA0 41804:749.178 - 0.104ms returns 0
T1CA0 41804:749.266 JLINK_WriteReg(R14, 0x10000001)
T1CA0 41804:749.332 - 0.111ms returns 0
T1CA0 41804:749.429 JLINK_WriteReg(R15 (PC), 0x10000020)
T1CA0 41804:749.495 - 0.097ms returns 0
T1CA0 41804:749.577 JLINK_WriteReg(XPSR, 0x01000000)
T1CA0 41804:749.640 - 0.095ms returns 0
T1CA0 41804:749.723 JLINK_WriteReg(MSP, 0x10004000)
T1CA0 41804:749.788 - 0.095ms returns 0
T1CA0 41804:749.870 JLINK_WriteReg(PSP, 0x10004000)
T1CA0 41804:749.934 - 0.094ms returns 0
T1CA0 41804:750.032 JLINK_WriteReg(CFBP, 0x00000000)
T1CA0 41804:750.124 - 0.129ms returns 0
T1CA0 41804:750.238 JLINK_SetBPEx(Addr = 0x10000000, Type = 0xFFFFFFF2)
T1CA0 41804:750.363 - 0.157ms returns 0x00000006
T1CA0 41804:750.443 JLINK_Go()
T1CA0 41804:750.519   CPU_WriteMem(4 bytes @ 0xE0002000)
T1CA0 41804:752.226   CPU_ReadMem(4 bytes @ 0xE0001000)
T1CA0 41804:764.503 - 14.153ms
T1CA0 41804:764.682 JLINK_IsHalted()
T1CA0 41804:776.982 - 12.368ms returns TRUE
T1CA0 41804:777.155 JLINK_ReadReg(R15 (PC))
T1CA0 41804:777.241 - 0.112ms returns 0x10000000
T1CA0 41804:777.322 JLINK_ClrBPEx(BPHandle = 0x00000006)
T1CA0 41804:777.373 - 0.075ms returns 0x00
T1CA0 41804:777.449 JLINK_ReadReg(R0)
T1CA0 41804:777.497 - 0.071ms returns 0x00000001
T1CA0 41804:777.574 JLINK_HasError()
T1CA0 41804:777.641 JLINK_WriteReg(R0, 0x00010000)
T1CA0 41804:777.693 - 0.075ms returns 0
T1CA0 41804:777.767 JLINK_WriteReg(R1, 0x00002000)
T1CA0 41804:777.815 - 0.070ms returns 0
T1CA0 41804:777.890 JLINK_WriteReg(R2, 0x000000FF)
T1CA0 41804:777.937 - 0.070ms returns 0
T1CA0 41804:778.010 JLINK_WriteReg(R3, 0x00000000)
T1CA0 41804:778.057 - 0.141ms returns 0
T1CA0 41804:778.265 JLINK_WriteReg(R4, 0x00000000)
T1CA0 41804:778.345 - 0.104ms returns 0
T1CA0 41804:778.421 JLINK_WriteReg(R5, 0x00000000)
T1CA0 41804:778.469 - 0.071ms returns 0
T1CA0 41804:778.544 JLINK_WriteReg(R6, 0x00000000)
T1CA0 41804:778.591 - 0.070ms returns 0
T1CA0 41804:778.663 JLINK_WriteReg(R7, 0x00000000)
T1CA0 41804:778.710 - 0.070ms returns 0
T1CA0 41804:778.785 JLINK_WriteReg(R8, 0x00000000)
T1CA0 41804:778.832 - 0.070ms returns 0
T1CA0 41804:778.907 JLINK_WriteReg(R9, 0x10000138)
T1CA0 41804:778.954 - 0.070ms returns 0
T1CA0 41804:779.027 JLINK_WriteReg(R10, 0x00000000)
T1CA0 41804:779.248 - 0.268ms returns 0
T1CA0 41804:779.358 JLINK_WriteReg(R11, 0x00000000)
T1CA0 41804:779.408 - 0.073ms returns 0
T1CA0 41804:779.482 JLINK_WriteReg(R12, 0x00000000)
T1CA0 41804:779.529 - 0.070ms returns 0
T1CA0 41804:779.605 JLINK_WriteReg(R13 (SP), 0x10004000)
T1CA0 41804:779.655 - 0.073ms returns 0
T1CA0 41804:779.728 JLINK_WriteReg(R14, 0x10000001)
T1CA0 41804:779.775 - 0.070ms returns 0
T1CA0 41804:779.850 JLINK_WriteReg(R15 (PC), 0x10000084)
T1CA0 41804:779.898 - 0.091ms returns 0
T1CA0 41804:780.001 JLINK_WriteReg(XPSR, 0x01000000)
T1CA0 41804:780.050 - 0.084ms returns 0
T1CA0 41804:780.195 JLINK_WriteReg(MSP, 0x10004000)
T1CA0 41804:780.308 - 0.158ms returns 0
T1CA0 41804:780.427 JLINK_WriteReg(PSP, 0x10004000)
T1CA0 41804:780.513 - 0.117ms returns 0
T1CA0 41804:780.609 JLINK_WriteReg(CFBP, 0x00000000)
T1CA0 41804:780.674 - 0.095ms returns 0
T1CA0 41804:780.768 JLINK_SetBPEx(Addr = 0x10000000, Type = 0xFFFFFFF2)
T1CA0 41804:780.844 - 0.110ms returns 0x00000007
T1CA0 41804:780.951 JLINK_Go()
T1CA0 41804:781.053   CPU_WriteMem(4 bytes @ 0xE0002000)
T1CA0 41804:782.717   CPU_ReadMem(4 bytes @ 0xE0001000)
T1CA0 41804:795.330 - 14.452ms
T1CA0 41804:795.497 JLINK_IsHalted()
T1CA0 41804:797.286 - 1.863ms returns FALSE
T1CA0 41804:797.449 JLINK_HasError()
T1CA0 41804:849.944 JLINK_IsHalted()
T1CA0 41804:861.144 - 11.232ms returns TRUE
T1CA0 41804:861.197 JLINK_ReadReg(R15 (PC))
T1CA0 41804:861.216 - 0.026ms returns 0x10000000
T1CA0 41804:861.237 JLINK_ClrBPEx(BPHandle = 0x00000007)
T1CA0 41804:861.253 - 0.022ms returns 0x00
T1CA0 41804:861.273 JLINK_ReadReg(R0)
T1CA0 41804:861.287 - 0.020ms returns 0x00000000
T1CA0 41804:862.757 JLINK_HasError()
T1CA0 41804:862.814 JLINK_WriteReg(R0, 0x00012000)
T1CA0 41804:862.852 - 0.060ms returns 0
T1CA0 41804:862.901 JLINK_WriteReg(R1, 0x00002000)
T1CA0 41804:862.924 - 0.034ms returns 0
T1CA0 41804:862.957 JLINK_WriteReg(R2, 0x000000FF)
T1CA0 41804:862.981 - 0.035ms returns 0
T1CA0 41804:863.011 JLINK_WriteReg(R3, 0x00000000)
T1CA0 41804:863.054 - 0.059ms returns 0
T1CA0 41804:863.095 JLINK_WriteReg(R4, 0x00000000)
T1CA0 41804:863.125 - 0.042ms returns 0
T1CA0 41804:863.152 JLINK_WriteReg(R5, 0x00000000)
T1CA0 41804:863.181 - 0.037ms returns 0
T1CA0 41804:863.203 JLINK_WriteReg(R6, 0x00000000)
T1CA0 41804:863.221 - 0.025ms returns 0
T1CA0 41804:863.242 JLINK_WriteReg(R7, 0x00000000)
T1CA0 41804:863.257 - 0.022ms returns 0
T1CA0 41804:863.278 JLINK_WriteReg(R8, 0x00000000)
T1CA0 41804:863.294 - 0.023ms returns 0
T1CA0 41804:863.314 JLINK_WriteReg(R9, 0x10000138)
T1CA0 41804:863.330 - 0.024ms returns 0
T1CA0 41804:863.353 JLINK_WriteReg(R10, 0x00000000)
T1CA0 41804:863.368 - 0.023ms returns 0
T1CA0 41804:863.389 JLINK_WriteReg(R11, 0x00000000)
T1CA0 41804:863.405 - 0.022ms returns 0
T1CA0 41804:863.424 JLINK_WriteReg(R12, 0x00000000)
T1CA0 41804:863.439 - 0.023ms returns 0
T1CA0 41804:863.475 JLINK_WriteReg(R13 (SP), 0x10004000)
T1CA0 41804:863.495 - 0.028ms returns 0
T1CA0 41804:863.515 JLINK_WriteReg(R14, 0x10000001)
T1CA0 41804:863.531 - 0.022ms returns 0
T1CA0 41804:863.550 JLINK_WriteReg(R15 (PC), 0x10000020)
T1CA0 41804:863.566 - 0.023ms returns 0
T1CA0 41804:863.586 JLINK_WriteReg(XPSR, 0x01000000)
T1CA0 41804:863.601 - 0.022ms returns 0
T1CA0 41804:863.621 JLINK_WriteReg(MSP, 0x10004000)
T1CA0 41804:863.635 - 0.022ms returns 0
T1CA0 41804:863.656 JLINK_WriteReg(PSP, 0x10004000)
T1CA0 41804:863.671 - 0.022ms returns 0
T1CA0 41804:863.692 JLINK_WriteReg(CFBP, 0x00000000)
T1CA0 41804:863.707 - 0.021ms returns 0
T1CA0 41804:863.728 JLINK_SetBPEx(Addr = 0x10000000, Type = 0xFFFFFFF2)
T1CA0 41804:863.772 - 0.051ms returns 0x00000008
T1CA0 41804:863.794 JLINK_Go()
T1CA0 41804:863.830   CPU_WriteMem(4 bytes @ 0xE0002000)
T1CA0 41804:864.826   CPU_ReadMem(4 bytes @ 0xE0001000)
T1CA0 41804:876.070 - 12.344ms
T1CA0 41804:876.201 JLINK_IsHalted()
T1CA0 41804:887.547 - 11.412ms returns TRUE
T1CA0 41804:887.649 JLINK_ReadReg(R15 (PC))
T1CA0 41804:887.673 - 0.034ms returns 0x10000000
T1CA0 41804:887.699 JLINK_ClrBPEx(BPHandle = 0x00000008)
T1CA0 41804:887.719 - 0.027ms returns 0x00
T1CA0 41804:887.745 JLINK_ReadReg(R0)
T1CA0 41804:887.762 - 0.025ms returns 0x00000001
T1CA0 41804:887.937 JLINK_HasError()
T1CA0 41804:887.980 JLINK_WriteReg(R0, 0x00012000)
T1CA0 41804:888.023 - 0.058ms returns 0
T1CA0 41804:888.056 JLINK_WriteReg(R1, 0x00002000)
T1CA0 41804:888.074 - 0.025ms returns 0
T1CA0 41804:888.095 JLINK_WriteReg(R2, 0x000000FF)
T1CA0 41804:888.111 - 0.024ms returns 0
T1CA0 41804:888.235 JLINK_WriteReg(R3, 0x00000000)
T1CA0 41804:888.259 - 0.032ms returns 0
T1CA0 41804:888.281 JLINK_WriteReg(R4, 0x00000000)
T1CA0 41804:888.297 - 0.023ms returns 0
T1CA0 41804:888.318 JLINK_WriteReg(R5, 0x00000000)
T1CA0 41804:888.334 - 0.023ms returns 0
T1CA0 41804:888.355 JLINK_WriteReg(R6, 0x00000000)
T1CA0 41804:888.371 - 0.023ms returns 0
T1CA0 41804:888.392 JLINK_WriteReg(R7, 0x00000000)
T1CA0 41804:888.408 - 0.023ms returns 0
T1CA0 41804:888.429 JLINK_WriteReg(R8, 0x00000000)
T1CA0 41804:888.446 - 0.023ms returns 0
T1CA0 41804:888.467 JLINK_WriteReg(R9, 0x10000138)
T1CA0 41804:888.482 - 0.023ms returns 0
T1CA0 41804:888.503 JLINK_WriteReg(R10, 0x00000000)
T1CA0 41804:888.519 - 0.023ms returns 0
T1CA0 41804:888.540 JLINK_WriteReg(R11, 0x00000000)
T1CA0 41804:888.556 - 0.023ms returns 0
T1CA0 41804:888.577 JLINK_WriteReg(R12, 0x00000000)
T1CA0 41804:888.593 - 0.023ms returns 0
T1CA0 41804:888.614 JLINK_WriteReg(R13 (SP), 0x10004000)
T1CA0 41804:888.632 - 0.025ms returns 0
T1CA0 41804:888.653 JLINK_WriteReg(R14, 0x10000001)
T1CA0 41804:888.669 - 0.023ms returns 0
T1CA0 41804:888.690 JLINK_WriteReg(R15 (PC), 0x10000084)
T1CA0 41804:888.706 - 0.023ms returns 0
T1CA0 41804:888.727 JLINK_WriteReg(XPSR, 0x01000000)
T1CA0 41804:888.743 - 0.023ms returns 0
T1CA0 41804:888.766 JLINK_WriteReg(MSP, 0x10004000)
T1CA0 41804:888.781 - 0.023ms returns 0
T1CA0 41804:888.803 JLINK_WriteReg(PSP, 0x10004000)
T1CA0 41804:888.818 - 0.023ms returns 0
T1CA0 41804:888.839 JLINK_WriteReg(CFBP, 0x00000000)
T1CA0 41804:888.855 - 0.023ms returns 0
T1CA0 41804:888.877 JLINK_SetBPEx(Addr = 0x10000000, Type = 0xFFFFFFF2)
T1CA0 41804:888.897 - 0.027ms returns 0x00000009
T1CA0 41804:888.919 JLINK_Go()
T1CA0 41804:888.947   CPU_WriteMem(4 bytes @ 0xE0002000)
T1CA0 41804:889.975   CPU_ReadMem(4 bytes @ 0xE0001000)
T1CA0 41804:901.272 - 12.394ms
T1CA0 41804:901.352 JLINK_IsHalted()
T1CA0 41804:902.674 - 1.355ms returns FALSE
T1CA0 41804:902.735 JLINK_HasError()
T1CA0 41804:913.323 JLINK_IsHalted()
T1CA0 41804:914.986 - 1.709ms returns FALSE
T1CA0 41804:915.075 JLINK_HasError()
T1CA0 41804:917.190 JLINK_IsHalted()
T1CA0 41804:929.221 - 12.092ms returns TRUE
T1CA0 41804:929.337 JLINK_ReadReg(R15 (PC))
T1CA0 41804:929.390 - 0.076ms returns 0x10000000
T1CA0 41804:929.449 JLINK_ClrBPEx(BPHandle = 0x00000009)
T1CA0 41804:929.493 - 0.064ms returns 0x00
T1CA0 41804:929.549 JLINK_ReadReg(R0)
T1CA0 41804:929.590 - 0.061ms returns 0x00000000
T1CA0 41804:932.479 JLINK_HasError()
T1CA0 41804:932.566 JLINK_WriteReg(R0, 0x00014000)
T1CA0 41804:932.617 - 0.070ms returns 0
T1CA0 41804:932.671 JLINK_WriteReg(R1, 0x00002000)
T1CA0 41804:932.712 - 0.059ms returns 0
T1CA0 41804:932.764 JLINK_WriteReg(R2, 0x000000FF)
T1CA0 41804:932.804 - 0.058ms returns 0
T1CA0 41804:932.856 JLINK_WriteReg(R3, 0x00000000)
T1CA0 41804:932.895 - 0.069ms returns 0
T1CA0 41804:932.981 JLINK_WriteReg(R4, 0x00000000)
T1CA0 41804:933.069 - 0.118ms returns 0
T1CA0 41804:933.138 JLINK_WriteReg(R5, 0x00000000)
T1CA0 41804:933.179 - 0.060ms returns 0
T1CA0 41804:933.232 JLINK_WriteReg(R6, 0x00000000)
T1CA0 41804:933.271 - 0.058ms returns 0
T1CA0 41804:933.350 JLINK_WriteReg(R7, 0x00000000)
T1CA0 41804:933.395 - 0.063ms returns 0
T1CA0 41804:933.447 JLINK_WriteReg(R8, 0x00000000)
T1CA0 41804:933.487 - 0.058ms returns 0
T1CA0 41804:933.540 JLINK_WriteReg(R9, 0x10000138)
T1CA0 41804:933.579 - 0.058ms returns 0
T1CA0 41804:933.631 JLINK_WriteReg(R10, 0x00000000)
T1CA0 41804:933.671 - 0.059ms returns 0
T1CA0 41804:933.723 JLINK_WriteReg(R11, 0x00000000)
T1CA0 41804:933.762 - 0.058ms returns 0
T1CA0 41804:933.815 JLINK_WriteReg(R12, 0x00000000)
T1CA0 41804:933.853 - 0.057ms returns 0
T1CA0 41804:933.917 JLINK_WriteReg(R13 (SP), 0x10004000)
T1CA0 41804:933.959 - 0.061ms returns 0
T1CA0 41804:934.012 JLINK_WriteReg(R14, 0x10000001)
T1CA0 41804:934.051 - 0.058ms returns 0
T1CA0 41804:934.104 JLINK_WriteReg(R15 (PC), 0x10000020)
T1CA0 41804:934.143 - 0.058ms returns 0
T1CA0 41804:934.196 JLINK_WriteReg(XPSR, 0x01000000)
T1CA0 41804:934.245 - 0.075ms returns 0
T1CA0 41804:934.305 JLINK_WriteReg(MSP, 0x10004000)
T1CA0 41804:934.344 - 0.058ms returns 0
T1CA0 41804:934.397 JLINK_WriteReg(PSP, 0x10004000)
T1CA0 41804:934.436 - 0.058ms returns 0
T1CA0 41804:934.489 JLINK_WriteReg(CFBP, 0x00000000)
T1CA0 41804:934.528 - 0.058ms returns 0
T1CA0 41804:934.582 JLINK_SetBPEx(Addr = 0x10000000, Type = 0xFFFFFFF2)
T1CA0 41804:934.628 - 0.065ms returns 0x0000000A
T1CA0 41804:934.683 JLINK_Go()
T1CA0 41804:934.744   CPU_WriteMem(4 bytes @ 0xE0002000)
T1CA0 41804:936.298   CPU_ReadMem(4 bytes @ 0xE0001000)
T1CA0 41804:948.219 - 13.645ms
T1CA0 41804:948.426 JLINK_IsHalted()
T1CA0 41804:960.633 - 12.276ms returns TRUE
T1CA0 41804:960.787 JLINK_ReadReg(R15 (PC))
T1CA0 41804:960.854 - 0.093ms returns 0x10000000
T1CA0 41804:960.951 JLINK_ClrBPEx(BPHandle = 0x0000000A)
T1CA0 41804:961.009 - 0.082ms returns 0x00
T1CA0 41804:961.089 JLINK_ReadReg(R0)
T1CA0 41804:961.155 - 0.092ms returns 0x00000001
T1CA0 41804:961.237 JLINK_HasError()
T1CA0 41804:961.562 JLINK_WriteReg(R0, 0x00014000)
T1CA0 41804:961.656 - 0.119ms returns 0
T1CA0 41804:961.725 JLINK_WriteReg(R1, 0x00002000)
T1CA0 41804:961.773 - 0.070ms returns 0
T1CA0 41804:961.836 JLINK_WriteReg(R2, 0x000000FF)
T1CA0 41804:961.883 - 0.069ms returns 0
T1CA0 41804:961.946 JLINK_WriteReg(R3, 0x00000000)
T1CA0 41804:961.993 - 0.070ms returns 0
T1CA0 41804:962.056 JLINK_WriteReg(R4, 0x00000000)
T1CA0 41804:962.103 - 0.069ms returns 0
T1CA0 41804:962.175 JLINK_WriteReg(R5, 0x00000000)
T1CA0 41804:962.273 - 0.155ms returns 0
T1CA0 41804:962.395 JLINK_WriteReg(R6, 0x00000000)
T1CA0 41804:962.465 - 0.094ms returns 0
T1CA0 41804:962.530 JLINK_WriteReg(R7, 0x00000000)
T1CA0 41804:962.577 - 0.070ms returns 0
T1CA0 41804:962.640 JLINK_WriteReg(R8, 0x00000000)
T1CA0 41804:962.687 - 0.070ms returns 0
T1CA0 41804:962.750 JLINK_WriteReg(R9, 0x10000138)
T1CA0 41804:962.797 - 0.069ms returns 0
T1CA0 41804:962.860 JLINK_WriteReg(R10, 0x00000000)
T1CA0 41804:962.907 - 0.070ms returns 0
T1CA0 41804:962.970 JLINK_WriteReg(R11, 0x00000000)
T1CA0 41804:963.016 - 0.069ms returns 0
T1CA0 41804:963.079 JLINK_WriteReg(R12, 0x00000000)
T1CA0 41804:963.125 - 0.091ms returns 0
T1CA0 41804:963.303 JLINK_WriteReg(R13 (SP), 0x10004000)
T1CA0 41804:963.433 - 0.157ms returns 0
T1CA0 41804:963.508 JLINK_WriteReg(R14, 0x10000001)
T1CA0 41804:963.560 - 0.075ms returns 0
T1CA0 41804:963.624 JLINK_WriteReg(R15 (PC), 0x10000084)
T1CA0 41804:963.673 - 0.072ms returns 0
T1CA0 41804:963.737 JLINK_WriteReg(XPSR, 0x01000000)
T1CA0 41804:963.786 - 0.072ms returns 0
T1CA0 41804:963.849 JLINK_WriteReg(MSP, 0x10004000)
T1CA0 41804:963.897 - 0.070ms returns 0
T1CA0 41804:963.960 JLINK_WriteReg(PSP, 0x10004000)
T1CA0 41804:964.007 - 0.070ms returns 0
T1CA0 41804:964.070 JLINK_WriteReg(CFBP, 0x00000000)
T1CA0 41804:964.142 - 0.104ms returns 0
T1CA0 41804:964.227 JLINK_SetBPEx(Addr = 0x10000000, Type = 0xFFFFFFF2)
T1CA0 41804:964.297 - 0.093ms returns 0x0000000B
T1CA0 41804:964.364 JLINK_Go()
T1CA0 41804:964.436   CPU_WriteMem(4 bytes @ 0xE0002000)
T1CA0 41804:966.369   CPU_ReadMem(4 bytes @ 0xE0001000)
T1CA0 41804:979.123 - 14.831ms
T1CA0 41804:979.271 JLINK_IsHalted()
T1CA0 41804:981.151 - 1.970ms returns FALSE
T1CA0 41804:981.311 JLINK_HasError()
T1CA0 41804:983.056 JLINK_IsHalted()
T1CA0 41804:985.093 - 2.112ms returns FALSE
T1CA0 41804:985.253 JLINK_HasError()
T1CA0 41804:987.834 JLINK_IsHalted()
T1CA0 41804:990.168 - 2.411ms returns FALSE
T1CA0 41804:990.329 JLINK_HasError()
T1CA0 41804:992.936 JLINK_IsHalted()
T1CA0 41805:005.595 - 12.730ms returns TRUE
T1CA0 41805:005.745 JLINK_ReadReg(R15 (PC))
T1CA0 41805:005.806 - 0.089ms returns 0x10000000
T1CA0 41805:006.997 JLINK_ClrBPEx(BPHandle = 0x0000000B)
T1CA0 41805:007.084 - 0.121ms returns 0x00
T1CA0 41805:007.466 JLINK_ReadReg(R0)
T1CA0 41805:007.589 - 0.170ms returns 0x00000000
T1CA0 41805:012.594 JLINK_HasError()
T1CA0 41805:012.935 JLINK_WriteReg(R0, 0x00016000)
T1CA0 41805:013.038 - 0.141ms returns 0
T1CA0 41805:013.173 JLINK_WriteReg(R1, 0x00002000)
T1CA0 41805:013.267 - 0.133ms returns 0
T1CA0 41805:013.380 JLINK_WriteReg(R2, 0x000000FF)
T1CA0 41805:013.454 - 0.108ms returns 0
T1CA0 41805:013.560 JLINK_WriteReg(R3, 0x00000000)
T1CA0 41805:013.636 - 0.121ms returns 0
T1CA0 41805:013.756 JLINK_WriteReg(R4, 0x00000000)
T1CA0 41805:013.836 - 0.120ms returns 0
T1CA0 41805:013.952 JLINK_WriteReg(R5, 0x00000000)
T1CA0 41805:014.044 - 0.126ms returns 0
T1CA0 41805:014.160 JLINK_WriteReg(R6, 0x00000000)
T1CA0 41805:014.238 - 0.120ms returns 0
T1CA0 41805:014.346 JLINK_WriteReg(R7, 0x00000000)
T1CA0 41805:014.425 - 0.115ms returns 0
T1CA0 41805:014.538 JLINK_WriteReg(R8, 0x00000000)
T1CA0 41805:014.614 - 0.123ms returns 0
T1CA0 41805:014.991 JLINK_WriteReg(R9, 0x10000138)
T1CA0 41805:015.106 - 0.164ms returns 0
T1CA0 41805:015.255 JLINK_WriteReg(R10, 0x00000000)
T1CA0 41805:015.368 - 0.156ms returns 0
T1CA0 41805:015.511 JLINK_WriteReg(R11, 0x00000000)
T1CA0 41805:015.606 - 0.140ms returns 0
T1CA0 41805:015.720 JLINK_WriteReg(R12, 0x00000000)
T1CA0 41805:015.885 - 0.222ms returns 0
T1CA0 41805:016.040 JLINK_WriteReg(R13 (SP), 0x10004000)
T1CA0 41805:016.119 - 0.110ms returns 0
T1CA0 41805:016.217 JLINK_WriteReg(R14, 0x10000001)
T1CA0 41805:016.284 - 0.099ms returns 0
T1CA0 41805:016.384 JLINK_WriteReg(R15 (PC), 0x10000020)
T1CA0 41805:016.461 - 0.223ms returns 0
T1CA0 41805:017.052 JLINK_WriteReg(XPSR, 0x01000000)
T1CA0 41805:017.259 - 0.272ms returns 0
T1CA0 41805:017.395 JLINK_WriteReg(MSP, 0x10004000)
T1CA0 41805:017.472 - 0.112ms returns 0
T1CA0 41805:017.566 JLINK_WriteReg(PSP, 0x10004000)
T1CA0 41805:017.639 - 0.124ms returns 0
T1CA0 41805:017.777 JLINK_WriteReg(CFBP, 0x00000000)
T1CA0 41805:017.850 - 0.107ms returns 0
T1CA0 41805:017.958 JLINK_SetBPEx(Addr = 0x10000000, Type = 0xFFFFFFF2)
T1CA0 41805:018.041 - 0.118ms returns 0x0000000C
T1CA0 41805:018.154 JLINK_Go()
T1CA0 41805:018.277   CPU_WriteMem(4 bytes @ 0xE0002000)
T1CA0 41805:019.986   CPU_ReadMem(4 bytes @ 0xE0001000)
T1CA0 41805:035.353 - 17.301ms
T1CA0 41805:035.570 JLINK_IsHalted()
T1CA0 41805:047.604 - 12.120ms returns TRUE
T1CA0 41805:047.793 JLINK_ReadReg(R15 (PC))
T1CA0 41805:047.913 - 0.157ms returns 0x10000000
T1CA0 41805:048.012 JLINK_ClrBPEx(BPHandle = 0x0000000C)
T1CA0 41805:048.065 - 0.077ms returns 0x00
T1CA0 41805:048.144 JLINK_ReadReg(R0)
T1CA0 41805:048.193 - 0.072ms returns 0x00000001
T1CA0 41805:048.272 JLINK_HasError()
T1CA0 41805:048.352 JLINK_WriteReg(R0, 0x00016000)
T1CA0 41805:048.403 - 0.075ms returns 0
T1CA0 41805:048.480 JLINK_WriteReg(R1, 0x00002000)
T1CA0 41805:048.529 - 0.081ms returns 0
T1CA0 41805:048.618 JLINK_WriteReg(R2, 0x000000FF)
T1CA0 41805:048.678 - 0.091ms returns 0
T1CA0 41805:048.760 JLINK_WriteReg(R3, 0x00000000)
T1CA0 41805:048.888 - 0.162ms returns 0
T1CA0 41805:049.009 JLINK_WriteReg(R4, 0x00000000)
T1CA0 41805:049.111 - 0.131ms returns 0
T1CA0 41805:049.209 JLINK_WriteReg(R5, 0x00000000)
T1CA0 41805:049.271 - 0.085ms returns 0
T1CA0 41805:049.370 JLINK_WriteReg(R6, 0x00000000)
T1CA0 41805:049.474 - 0.151ms returns 0
T1CA0 41805:049.604 JLINK_WriteReg(R7, 0x00000000)
T1CA0 41805:049.684 - 0.134ms returns 0
T1CA0 41805:049.814 JLINK_WriteReg(R8, 0x00000000)
T1CA0 41805:050.044 - 0.298ms returns 0
T1CA0 41805:050.219 JLINK_WriteReg(R9, 0x10000138)
T1CA0 41805:050.315 - 0.121ms returns 0
T1CA0 41805:050.400 JLINK_WriteReg(R10, 0x00000000)
T1CA0 41805:050.450 - 0.073ms returns 0
T1CA0 41805:050.677 JLINK_WriteReg(R11, 0x00000000)
T1CA0 41805:050.786 - 0.133ms returns 0
T1CA0 41805:050.904 JLINK_WriteReg(R12, 0x00000000)
T1CA0 41805:051.100 - 0.229ms returns 0
T1CA0 41805:051.210 JLINK_WriteReg(R13 (SP), 0x10004000)
T1CA0 41805:051.333 - 0.164ms returns 0
T1CA0 41805:051.570 JLINK_WriteReg(R14, 0x10000001)
T1CA0 41805:051.647 - 0.109ms returns 0
T1CA0 41805:051.751 JLINK_WriteReg(R15 (PC), 0x10000084)
T1CA0 41805:051.819 - 0.097ms returns 0
T1CA0 41805:051.938 JLINK_WriteReg(XPSR, 0x01000000)
T1CA0 41805:052.014 - 0.106ms returns 0
T1CA0 41805:052.127 JLINK_WriteReg(MSP, 0x10004000)
T1CA0 41805:052.206 - 0.110ms returns 0
T1CA0 41805:052.299 JLINK_WriteReg(PSP, 0x10004000)
T1CA0 41805:052.361 - 0.092ms returns 0
T1CA0 41805:052.454 JLINK_WriteReg(CFBP, 0x00000000)
T1CA0 41805:052.517 - 0.275ms returns 0
T1CA0 41805:052.811 JLINK_SetBPEx(Addr = 0x10000000, Type = 0xFFFFFFF2)
T1CA0 41805:052.919 - 0.145ms returns 0x0000000D
T1CA0 41805:053.029 JLINK_Go()
T1CA0 41805:053.157   CPU_WriteMem(4 bytes @ 0xE0002000)
T1CA0 41805:054.763   CPU_ReadMem(4 bytes @ 0xE0001000)
T1CA0 41805:068.144 - 15.215ms
T1CA0 41805:068.353 JLINK_IsHalted()
T1CA0 41805:070.045 - 1.821ms returns FALSE
T1CA0 41805:070.292 JLINK_HasError()
T1CA0 41805:094.043 JLINK_IsHalted()
T1CA0 41805:106.765 - 12.801ms returns TRUE
T1CA0 41805:107.077 JLINK_ReadReg(R15 (PC))
T1CA0 41805:107.212 - 0.172ms returns 0x10000000
T1CA0 41805:107.340 JLINK_ClrBPEx(BPHandle = 0x0000000D)
T1CA0 41805:107.428 - 0.123ms returns 0x00
T1CA0 41805:107.543 JLINK_ReadReg(R0)
T1CA0 41805:107.623 - 0.117ms returns 0x00000000
T1CA0 41805:153.407 JLINK_HasError()
T1CA0 41805:153.571 JLINK_WriteReg(R0, 0x00018000)
T1CA0 41805:153.676 - 0.143ms returns 0
T1CA0 41805:153.772 JLINK_WriteReg(R1, 0x00002000)
T1CA0 41805:153.849 - 0.115ms returns 0
T1CA0 41805:154.024 JLINK_WriteReg(R2, 0x000000FF)
T1CA0 41805:154.123 - 0.161ms returns 0
T1CA0 41805:154.261 JLINK_WriteReg(R3, 0x00000000)
T1CA0 41805:154.340 - 0.109ms returns 0
T1CA0 41805:154.423 JLINK_WriteReg(R4, 0x00000000)
T1CA0 41805:154.485 - 0.094ms returns 0
T1CA0 41805:154.579 JLINK_WriteReg(R5, 0x00000000)
T1CA0 41805:154.643 - 0.094ms returns 0
T1CA0 41805:154.743 JLINK_WriteReg(R6, 0x00000000)
T1CA0 41805:154.824 - 0.129ms returns 0
T1CA0 41805:155.084 JLINK_WriteReg(R7, 0x00000000)
T1CA0 41805:155.199 - 0.151ms returns 0
T1CA0 41805:155.298 JLINK_WriteReg(R8, 0x00000000)
T1CA0 41805:155.367 - 0.099ms returns 0
T1CA0 41805:155.449 JLINK_WriteReg(R9, 0x10000138)
T1CA0 41805:155.513 - 0.100ms returns 0
T1CA0 41805:155.601 JLINK_WriteReg(R10, 0x00000000)
T1CA0 41805:155.666 - 0.096ms returns 0
T1CA0 41805:155.751 JLINK_WriteReg(R11, 0x00000000)
T1CA0 41805:155.816 - 0.095ms returns 0
T1CA0 41805:155.952 JLINK_WriteReg(R12, 0x00000000)
T1CA0 41805:157.452 - 1.537ms returns 0
T1CA0 41805:157.559 JLINK_WriteReg(R13 (SP), 0x10004000)
T1CA0 41805:157.633 - 0.105ms returns 0
T1CA0 41805:157.716 JLINK_WriteReg(R14, 0x10000001)
T1CA0 41805:158.012 - 0.344ms returns 0
T1CA0 41805:158.117 JLINK_WriteReg(R15 (PC), 0x10000020)
T1CA0 41805:158.185 - 0.099ms returns 0
T1CA0 41805:158.265 JLINK_WriteReg(XPSR, 0x01000000)
T1CA0 41805:158.337 - 0.103ms returns 0
T1CA0 41805:158.415 JLINK_WriteReg(MSP, 0x10004000)
T1CA0 41805:158.478 - 0.093ms returns 0
T1CA0 41805:158.558 JLINK_WriteReg(PSP, 0x10004000)
T1CA0 41805:158.635 - 0.110ms returns 0
T1CA0 41805:158.718 JLINK_WriteReg(CFBP, 0x00000000)
T1CA0 41805:158.891 - 0.400ms returns 0
T1CA0 41805:159.228 JLINK_SetBPEx(Addr = 0x10000000, Type = 0xFFFFFFF2)
T1CA0 41805:159.473 - 0.292ms returns 0x0000000E
T1CA0 41805:159.601 JLINK_Go()
T1CA0 41805:159.712   CPU_WriteMem(4 bytes @ 0xE0002000)
T1CA0 41805:161.432   CPU_ReadMem(4 bytes @ 0xE0001000)
T1CA0 41805:173.505 - 14.009ms
T1CA0 41805:173.784 JLINK_IsHalted()
T1CA0 41805:185.460 - 11.732ms returns TRUE
T1CA0 41805:185.593 JLINK_ReadReg(R15 (PC))
T1CA0 41805:185.653 - 0.084ms returns 0x10000000
T1CA0 41805:185.745 JLINK_ClrBPEx(BPHandle = 0x0000000E)
T1CA0 41805:185.821 - 0.109ms returns 0x00
T1CA0 41805:185.912 JLINK_ReadReg(R0)
T1CA0 41805:185.961 - 0.072ms returns 0x00000001
T1CA0 41805:186.041 JLINK_HasError()
T1CA0 41805:186.119 JLINK_WriteReg(R0, 0x00018000)
T1CA0 41805:186.172 - 0.075ms returns 0
T1CA0 41805:186.249 JLINK_WriteReg(R1, 0x00002000)
T1CA0 41805:186.301 - 0.081ms returns 0
T1CA0 41805:186.384 JLINK_WriteReg(R2, 0x000000FF)
T1CA0 41805:186.434 - 0.087ms returns 0
T1CA0 41805:186.525 JLINK_WriteReg(R3, 0x00000000)
T1CA0 41805:186.573 - 0.071ms returns 0
T1CA0 41805:186.648 JLINK_WriteReg(R4, 0x00000000)
T1CA0 41805:186.718 - 0.093ms returns 0
T1CA0 41805:186.794 JLINK_WriteReg(R5, 0x00000000)
T1CA0 41805:186.841 - 0.070ms returns 0
T1CA0 41805:186.916 JLINK_WriteReg(R6, 0x00000000)
T1CA0 41805:186.983 - 0.107ms returns 0
T1CA0 41805:187.094 JLINK_WriteReg(R7, 0x00000000)
T1CA0 41805:187.144 - 0.073ms returns 0
T1CA0 41805:187.220 JLINK_WriteReg(R8, 0x00000000)
T1CA0 41805:187.268 - 0.071ms returns 0
T1CA0 41805:187.343 JLINK_WriteReg(R9, 0x10000138)
T1CA0 41805:187.390 - 0.069ms returns 0
T1CA0 41805:187.465 JLINK_WriteReg(R10, 0x00000000)
T1CA0 41805:187.517 - 0.080ms returns 0
T1CA0 41805:187.598 JLINK_WriteReg(R11, 0x00000000)
T1CA0 41805:187.648 - 0.085ms returns 0
T1CA0 41805:187.737 JLINK_WriteReg(R12, 0x00000000)
T1CA0 41805:187.784 - 0.070ms returns 0
T1CA0 41805:187.860 JLINK_WriteReg(R13 (SP), 0x10004000)
T1CA0 41805:187.910 - 0.073ms returns 0
T1CA0 41805:187.985 JLINK_WriteReg(R14, 0x10000001)
T1CA0 41805:188.033 - 0.071ms returns 0
T1CA0 41805:188.108 JLINK_WriteReg(R15 (PC), 0x10000084)
T1CA0 41805:188.156 - 0.082ms returns 0
T1CA0 41805:188.257 JLINK_WriteReg(XPSR, 0x01000000)
T1CA0 41805:188.307 - 0.072ms returns 0
T1CA0 41805:188.382 JLINK_WriteReg(MSP, 0x10004000)
T1CA0 41805:188.429 - 0.070ms returns 0
T1CA0 41805:188.504 JLINK_WriteReg(PSP, 0x10004000)
T1CA0 41805:188.551 - 0.069ms returns 0
T1CA0 41805:188.626 JLINK_WriteReg(CFBP, 0x00000000)
T1CA0 41805:188.678 - 0.080ms returns 0
T1CA0 41805:188.760 JLINK_SetBPEx(Addr = 0x10000000, Type = 0xFFFFFFF2)
T1CA0 41805:188.831 - 0.102ms returns 0x0000000F
T1CA0 41805:188.922 JLINK_Go()
T1CA0 41805:189.047   CPU_WriteMem(4 bytes @ 0xE0002000)
T1CA0 41805:191.053   CPU_ReadMem(4 bytes @ 0xE0001000)
T1CA0 41805:202.692 - 13.830ms
T1CA0 41805:202.858 JLINK_IsHalted()
T1CA0 41805:204.128 - 1.316ms returns FALSE
